tail current source X,tail current source Y,stg1 amp X,stg1 amp Y,stg1 load X,stg1 load Y,stg2 load X,stg2 load Y,stg2 amp X,stg2 amp Y,/net1 X,/net1 Y
0,2,0,1,0,2,0,2,0,1,0,0.02773358368811362
0.066,2,0.066,1,0.066,2,0.066,2,0.066,1,0.066,0.02858025556196307
0.132,2,0.132,1,0.132,2,0.132,2,0.132,1,0.132,0.03150057369614846
0.198,2,0.198,1,0.198,2,0.198,2,0.198,2,0.198,1.648818589111914
0.264,2,0.264,1,0.264,2,0.264,2,0.264,2,0.264,1.649388056108508
0.33,2,0.33,1,0.33,2,0.33,2,0.33,2,0.33,1.649702624239498
0.396,2,0.396,2,0.396,2,0.396,2,0.396,2,0.396,1.64994048171595
0.462,2,0.462,2,0.462,2,0.462,2,0.462,2,0.462,1.650130916535019
0.528,2,0.528,2,0.528,2,0.528,2,0.528,2,0.528,1.650288611270037
0.5940000000000001,2,0.5940000000000001,2,0.5940000000000001,2,0.5940000000000001,2,0.5940000000000001,2,0.5940000000000001,1.650420821380468
0.6600000000000001,2,0.6600000000000001,2,0.6600000000000001,2,0.6600000000000001,2,0.6600000000000001,2,0.6600000000000001,1.650527172404634
0.7260000000000002,2,0.7260000000000002,2,0.7260000000000002,2,0.7260000000000002,2,0.7260000000000002,2,0.7260000000000002,1.65059900113699
0.7920000000000003,2,0.7920000000000003,2,0.7920000000000003,2,0.7920000000000003,2,0.7920000000000003,2,0.7920000000000003,1.650634121283015
0.8580000000000003,2,0.8580000000000003,2,0.8580000000000003,2,0.8580000000000003,2,0.8580000000000003,2,0.8580000000000003,1.650652846495227
0.9240000000000004,2,0.9240000000000004,2,0.9240000000000004,2,0.9240000000000004,2,0.9240000000000004,2,0.9240000000000004,1.650667540086259
0.9900000000000004,2,0.9900000000000004,2,0.9900000000000004,2,0.9900000000000004,2,0.9900000000000004,2,0.9900000000000004,1.650680633635579
1.056,2,1.056,2,1.056,2,1.056,2,1.056,2,1.056,1.650692548934264
1.122000000000001,2,1.122000000000001,2,1.122000000000001,2,1.122000000000001,2,1.122000000000001,2,1.122000000000001,1.65070301328238
1.188000000000001,2,1.188000000000001,2,1.188000000000001,2,1.188000000000001,2,1.188000000000001,2,1.188000000000001,1.650711400336889
1.254000000000001,2,1.254000000000001,2,1.254000000000001,2,1.254000000000001,2,1.254000000000001,2,1.254000000000001,1.650717067704518
1.320000000000001,2,1.320000000000001,2,1.320000000000001,2,1.320000000000001,2,1.320000000000001,2,1.320000000000001,1.650720527852578
1.386000000000001,2,1.386000000000001,2,1.386000000000001,2,1.386000000000001,2,1.386000000000001,2,1.386000000000001,1.650723203367917
1.452000000000001,2,1.452000000000001,2,1.452000000000001,2,1.452000000000001,2,1.452000000000001,2,1.452000000000001,1.650725683271788
1.518000000000001,2,1.518000000000001,2,1.518000000000001,2,1.518000000000001,2,1.518000000000001,2,1.518000000000001,1.650728133723547
1.584000000000001,2,1.584000000000001,2,1.584000000000001,2,1.584000000000001,2,1.584000000000001,2,1.584000000000001,1.650730605248742
1.650000000000001,2,1.650000000000001,2,1.650000000000001,2,1.650000000000001,2,1.650000000000001,2,1.650000000000001,1.650733126594697
1.716000000000001,2,1.716000000000001,2,1.716000000000001,2,1.716000000000001,2,1.716000000000001,2,1.716000000000001,1.650735723357597
1.782000000000001,2,1.782000000000001,2,1.782000000000001,2,1.782000000000001,2,1.782000000000001,2,1.782000000000001,1.65073842435985
1.848000000000001,2,1.848000000000001,2,1.848000000000001,2,1.848000000000001,2,1.848000000000001,2,1.848000000000001,1.650741266210721
1.914000000000001,2,1.914000000000001,2,1.914000000000001,2,1.914000000000001,2,1.914000000000001,2,1.914000000000001,1.650744296639493
1.980000000000001,2,1.980000000000001,2,1.980000000000001,2,1.980000000000001,2,1.980000000000001,2,1.980000000000001,1.650747571973626
2.046000000000001,2,2.046000000000001,2,2.046000000000001,2,2.046000000000001,2,2.046000000000001,2,2.046000000000001,1.650751112660745
2.112000000000001,2,2.112000000000001,2,2.112000000000001,2,2.112000000000001,2,2.112000000000001,2,2.112000000000001,1.650754661105217
2.178000000000001,2,2.178000000000001,2,2.178000000000001,2,2.178000000000001,2,2.178000000000001,2,2.178000000000001,1.650757404917971
2.244000000000001,1,2.244000000000001,2,2.244000000000001,2,2.244000000000001,2,2.244000000000001,2,2.244000000000001,1.650766313408393
2.31,1,2.31,2,2.31,2,2.31,2,2.31,2,2.31,1.650834562158806
2.376,1,2.376,2,2.376,2,2.376,2,2.376,2,2.376,1.651155685420944
2.442,1,2.442,2,2.442,2,2.442,2,2.442,2,2.442,1.654509716907746
2.508,1,2.508,2,2.508,1,2.508,1,2.508,0,2.508,3.299999998794284
2.574,1,2.574,3,2.574,1,2.574,1,2.574,0,2.574,3.299999998985135
2.64,1,2.64,3,2.64,1,2.64,1,2.64,0,2.64,3.299999998981939
2.706,1,2.706,3,2.706,1,2.706,1,2.706,0,2.706,3.299999998976512
2.771999999999999,1,2.771999999999999,3,2.771999999999999,1,2.771999999999999,1,2.771999999999999,0,2.771999999999999,3.299999998974832
2.837999999999999,1,2.837999999999999,0,2.837999999999999,1,2.837999999999999,1,2.837999999999999,0,2.837999999999999,3.299999998974445
2.903999999999999,1,2.903999999999999,0,2.903999999999999,1,2.903999999999999,1,2.903999999999999,0,2.903999999999999,3.299999998974367
2.969999999999999,1,2.969999999999999,0,2.969999999999999,1,2.969999999999999,1,2.969999999999999,0,2.969999999999999,3.299999998974353
3.035999999999999,1,3.035999999999999,0,3.035999999999999,1,3.035999999999999,1,3.035999999999999,0,3.035999999999999,3.29999999897435
3.101999999999999,1,3.101999999999999,0,3.101999999999999,1,3.101999999999999,1,3.101999999999999,0,3.101999999999999,3.29999999897435
3.167999999999998,1,3.167999999999998,0,3.167999999999998,1,3.167999999999998,1,3.167999999999998,0,3.167999999999998,3.29999999897435
3.233999999999998,1,3.233999999999998,0,3.233999999999998,1,3.233999999999998,1,3.233999999999998,0,3.233999999999998,3.29999999897435
3.3,1,3.3,0,3.3,1,3.3,1,3.3,0,3.3,3.29999999897435
